<Qucs Dataset 0.0.15>
<indep time 50>
  +0.00000000000e+00
  +2.04081632653e-02
  +4.08163265306e-02
  +6.12244897959e-02
  +8.16326530612e-02
  +1.02040816327e-01
  +1.22448979592e-01
  +1.42857142857e-01
  +1.63265306122e-01
  +1.83673469388e-01
  +2.04081632653e-01
  +2.24489795918e-01
  +2.44897959184e-01
  +2.65306122449e-01
  +2.85714285714e-01
  +3.06122448980e-01
  +3.26530612245e-01
  +3.46938775510e-01
  +3.67346938776e-01
  +3.87755102041e-01
  +4.08163265306e-01
  +4.28571428571e-01
  +4.48979591837e-01
  +4.69387755102e-01
  +4.89795918367e-01
  +5.10204081633e-01
  +5.30612244898e-01
  +5.51020408163e-01
  +5.71428571429e-01
  +5.91836734694e-01
  +6.12244897959e-01
  +6.32653061224e-01
  +6.53061224490e-01
  +6.73469387755e-01
  +6.93877551020e-01
  +7.14285714286e-01
  +7.34693877551e-01
  +7.55102040816e-01
  +7.75510204082e-01
  +7.95918367347e-01
  +8.16326530612e-01
  +8.36734693878e-01
  +8.57142857143e-01
  +8.77551020408e-01
  +8.97959183673e-01
  +9.18367346939e-01
  +9.38775510204e-01
  +9.59183673469e-01
  +9.79591836735e-01
  +1.00000000000e+00
</indep>
<dep V2.It time>
  +0.00000000000e+00
  +0.00000000000e+00
  -3.99528235863e-22
  +0.00000000000e+00
  +0.00000000000e+00
  +0.00000000000e+00
  -1.72053567411e-22
  -2.64697796017e-22
  +0.00000000000e+00
  +0.00000000000e+00
  +0.00000000000e+00
  -6.81596824744e-22
  +3.98701055251e-22
  +0.00000000000e+00
  +0.00000000000e+00
  +0.00000000000e+00
  +0.00000000000e+00
  +0.00000000000e+00
  +0.00000000000e+00
  +0.00000000000e+00
  -7.15511229858e-22
  -1.61631091693e-21
  +0.00000000000e+00
  +0.00000000000e+00
  +0.00000000000e+00
  -2.00177708238e-22
  +0.00000000000e+00
  +0.00000000000e+00
  +0.00000000000e+00
  +0.00000000000e+00
  +0.00000000000e+00
  +1.13985488410e-21
  +0.00000000000e+00
  +0.00000000000e+00
  +0.00000000000e+00
  -2.92821936844e-22
  -5.95570041038e-23
  +0.00000000000e+00
  +0.00000000000e+00
  +0.00000000000e+00
  +0.00000000000e+00
  -7.26264577822e-22
  +0.00000000000e+00
  +0.00000000000e+00
  +0.00000000000e+00
  +5.24432508359e-22
  -6.38583432891e-22
  +0.00000000000e+00
  +0.00000000000e+00
  +0.00000000000e+00
</dep>
<dep V3.It time>
  -6.38297872390e-06
  +7.63119387931e-06
  -1.15884681964e-06
  -6.38272126833e-06
  -6.38272127700e-06
  -6.38272128696e-06
  +8.23787046336e-06
  -3.53440003269e-06
  -6.38281635269e-06
  -6.38314108959e-06
  -6.38281636351e-06
  +8.49966560025e-06
  -6.06153550657e-06
  -6.38285408405e-06
  -6.38285408957e-06
  -4.78156295821e-06
  +8.41228086791e-06
  -6.38283120246e-06
  -6.38312624151e-06
  -6.38283121016e-06
  -2.32517165348e-06
  +7.97715103477e-06
  -6.38282794317e-06
  -6.38282795812e-06
  -6.38312948427e-06
  -4.02182245556e-08
  +7.20142054792e-06
  -6.38284880384e-06
  -6.38310863957e-06
  -6.38284881263e-06
  +2.03577835049e-06
  +6.09782640407e-06
  -6.38301956052e-06
  -6.38301955889e-06
  -6.38301955771e-06
  +3.86873021737e-06
  +4.68448918553e-06
  -6.38305203751e-06
  -6.38290541145e-06
  -6.38305203522e-06
  +5.42854039457e-06
  +2.98461560271e-06
  -6.38292982110e-06
  -6.38302762595e-06
  -6.38292982262e-06
  +6.68959701043e-06
  +1.02611743555e-06
  -6.38310548674e-06
  -6.38285196559e-06
  -6.38310547770e-06
</dep>
<dep Vbottom.Vt time>
  +2.99999999976e+00
  +9.58666112327e+00
  +5.45534199477e+00
  +3.00012100388e+00
  +3.00012099981e+00
  +3.00012099513e+00
  +9.87179911778e+00
  +4.33883198463e+00
  +3.00007631424e+00
  +2.99992368789e+00
  +3.00007630915e+00
  +9.99484283212e+00
  +3.15107831191e+00
  +3.00005858050e+00
  +3.00005857790e+00
  +3.75266540964e+00
  +9.95377200792e+00
  +3.00006933485e+00
  +2.99993066649e+00
  +3.00006933123e+00
  +4.90716932287e+00
  +9.74926098634e+00
  +3.00007086671e+00
  +3.00007085968e+00
  +2.99992914239e+00
  +5.98109743446e+00
  +9.38466765752e+00
  +3.00006106219e+00
  +2.99993893940e+00
  +3.00006105806e+00
  +6.95681582473e+00
  +8.86597840991e+00
  +2.99998080655e+00
  +2.99998080732e+00
  +2.99998080788e+00
  +7.81830320216e+00
  +8.20170991720e+00
  +2.99996554237e+00
  +3.00003445662e+00
  +2.99996554345e+00
  +8.55141398545e+00
  +7.40276933327e+00
  +3.00002298408e+00
  +2.99997701580e+00
  +3.00002298337e+00
  +9.14411059490e+00
  +6.48227519471e+00
  +2.99994042123e+00
  +3.00005957617e+00
  +2.99994042548e+00
</dep>
<dep _net2.Vt time>
  -1.49999696036e+01
  +1.02085700209e+01
  +6.05174061267e+00
  -1.49999903833e+01
  -1.49999924912e+01
  -1.49999470247e+01
  +1.04948036032e+01
  +4.91955219359e+00
  -1.49999912342e+01
  -1.49999921058e+01
  -1.49998032728e+01
  +1.06183061234e+01
  +3.67539572075e+00
  -1.49999918594e+01
  -1.49999915709e+01
  +4.31849657196e+00
  +1.05770830602e+01
  -1.49999162237e+01
  -1.49999923150e+01
  -1.49999908416e+01
  +5.49703653224e+00
  +1.03718003233e+01
  -1.49999613502e+01
  -1.49999926370e+01
  -1.49999898465e+01
  +6.58251199526e+00
  +1.00057713348e+01
  -1.49999749533e+01
  -1.49999928475e+01
  -1.49999884676e+01
  +7.56555034954e+00
  +9.48489164473e+00
  -1.49999814338e+01
  -1.49999929604e+01
  -1.49999864958e+01
  +8.43213011580e+00
  +8.81751620634e+00
  -1.49999851750e+01
  -1.49999929827e+01
  -1.49999835295e+01
  +9.16890234445e+00
  +8.01426470185e+00
  -1.49999875745e+01
  -1.49999929156e+01
  -1.49999786881e+01
  +9.76422141722e+00
  +7.08770702649e+00
  -1.49999892151e+01
  -1.49999927551e+01
  -1.49999696030e+01
</dep>
<dep Vtop.Vt time>
  +0.00000000000e+00
  +9.58667853037e+00
  +5.45534901211e+00
  -6.48228395308e+00
  -9.14412623016e+00
  +1.27877161685e+00
  +9.87181783414e+00
  +4.33883739118e+00
  -7.40277997075e+00
  -8.55142763005e+00
  +2.53654583910e+00
  +9.99486216201e+00
  +3.15108218024e+00
  -8.20172254597e+00
  -7.81831482468e+00
  +3.75267004879e+00
  +9.95379112949e+00
  +1.91158628701e+00
  -8.86599306373e+00
  -6.95682550603e+00
  +4.90717552004e+00
  +9.74927912182e+00
  +6.40702199807e-01
  -9.38468422050e+00
  -5.98110530491e+00
  +5.98110530491e+00
  +9.38468422050e+00
  -6.40702199807e-01
  -9.74927912182e+00
  -4.90717552004e+00
  +6.95682550603e+00
  +8.86599306373e+00
  -1.91158628701e+00
  -9.95379112949e+00
  -3.75267004879e+00
  +7.81831482468e+00
  +8.20172254597e+00
  -3.15108218024e+00
  -9.99486216201e+00
  -2.53654583910e+00
  +8.55142763005e+00
  +7.40277997075e+00
  -4.33883739118e+00
  -9.87181783414e+00
  -1.27877161685e+00
  +9.14412623016e+00
  +6.48228395308e+00
  -5.45534901211e+00
  -9.58667853037e+00
  -2.44921270764e-14
</dep>
<dep _net1.Vt time>
  +6.00000000000e+00
  +6.00000000000e+00
  +6.00000000000e+00
  +6.00000000000e+00
  +6.00000000000e+00
  +6.00000000000e+00
  +6.00000000000e+00
  +6.00000000000e+00
  +6.00000000000e+00
  +6.00000000000e+00
  +6.00000000000e+00
  +6.00000000000e+00
  +6.00000000000e+00
  +6.00000000000e+00
  +6.00000000000e+00
  +6.00000000000e+00
  +6.00000000000e+00
  +6.00000000000e+00
  +6.00000000000e+00
  +6.00000000000e+00
  +6.00000000000e+00
  +6.00000000000e+00
  +6.00000000000e+00
  +6.00000000000e+00
  +6.00000000000e+00
  +6.00000000000e+00
  +6.00000000000e+00
  +6.00000000000e+00
  +6.00000000000e+00
  +6.00000000000e+00
  +6.00000000000e+00
  +6.00000000000e+00
  +6.00000000000e+00
  +6.00000000000e+00
  +6.00000000000e+00
  +6.00000000000e+00
  +6.00000000000e+00
  +6.00000000000e+00
  +6.00000000000e+00
  +6.00000000000e+00
  +6.00000000000e+00
  +6.00000000000e+00
  +6.00000000000e+00
  +6.00000000000e+00
  +6.00000000000e+00
  +6.00000000000e+00
  +6.00000000000e+00
  +6.00000000000e+00
  +6.00000000000e+00
  +6.00000000000e+00
</dep>
<dep _net0.Vt time>
  +0.00000000000e+00
  +9.58667853037e+00
  +5.45534901211e+00
  -6.48228395308e+00
  -9.14412623016e+00
  +1.27877161685e+00
  +9.87181783414e+00
  +4.33883739118e+00
  -7.40277997075e+00
  -8.55142763005e+00
  +2.53654583910e+00
  +9.99486216201e+00
  +3.15108218024e+00
  -8.20172254597e+00
  -7.81831482468e+00
  +3.75267004879e+00
  +9.95379112949e+00
  +1.91158628701e+00
  -8.86599306373e+00
  -6.95682550603e+00
  +4.90717552004e+00
  +9.74927912182e+00
  +6.40702199807e-01
  -9.38468422050e+00
  -5.98110530491e+00
  +5.98110530491e+00
  +9.38468422050e+00
  -6.40702199807e-01
  -9.74927912182e+00
  -4.90717552004e+00
  +6.95682550603e+00
  +8.86599306373e+00
  -1.91158628701e+00
  -9.95379112949e+00
  -3.75267004879e+00
  +7.81831482468e+00
  +8.20172254597e+00
  -3.15108218024e+00
  -9.99486216201e+00
  -2.53654583910e+00
  +8.55142763005e+00
  +7.40277997075e+00
  -4.33883739118e+00
  -9.87181783414e+00
  -1.27877161685e+00
  +9.14412623016e+00
  +6.48228395308e+00
  -5.45534901211e+00
  -9.58667853037e+00
  -2.44921270764e-14
</dep>
